
T072C 000:277 SEGGER J-Link V4.54a Log File (0000ms, 0277ms total)
T072C 000:277 DLL Compiled: Sep 17 2012 15:58:45 (0000ms, 0277ms total)
T072C 000:277 Logging started @ 2013-08-08 19:17 (0000ms, 0277ms total)
T072C 000:277 JLINK_SetWarnOutHandler(...) (0000ms, 0277ms total)
T072C 000:277 JLINK_OpenEx(...)
Firmware: J-Link ARM V8 compiled Aug  1 2012 13:40:47
Hardware: V8.00
S/N: 17935099
Feature(s): RDI,FlashDL,FlashBP,JFlash  returns O.K. (0017ms, 0294ms total)
T072C 000:294 JLINK_SetErrorOutHandler(...) (0000ms, 0294ms total)
T072C 000:294 JLINK_ExecCommand("ProjectFile = "E:\vision\ÐÂ°æ\ÐÂ°å-7-9\MDK-ARM\JLinkSettings.ini"", ...)  returns 0x00 (0000ms, 0294ms total)
T072C 000:295 JLINK_ExecCommand("Device = LPC1768", ...)
                JLINK_ExecCommand("map ram 0x10000000 - 0x10007FFF", ...)  returns 0x00 (0000ms, 0000ms total)
                JLINK_AddMirrorAreaEx(Addr = 0x00000000, Size = 0x00000000) (0000ms, 0000ms total)
              Device "LPC1768" selected (512 KB flash, 32 KB RAM).  returns 0x00 (0004ms, 0298ms total)
T072C 000:299 JLINK_ExecCommand("DisableConnectionTimeout", ...)  returns 0x00 (0000ms, 0298ms total)
T072C 000:299 JLINK_TIF_Select(JLINKARM_TIF_JTAG)  returns 0x00 (0000ms, 0298ms total)
T072C 000:299 JLINK_SetSpeed(2000) (0000ms, 0298ms total)
T072C 000:299 JLINK_GetHardwareVersion()  returns 0x13880 (0000ms, 0298ms total)
T072C 000:299 JLINK_GetDLLVersion()  returns 45401 (0000ms, 0298ms total)
T072C 000:299 JLINK_GetFirmwareString(...) (0000ms, 0298ms total)
T072C 000:309 JLINK_GetDLLVersion()  returns 45401 (0000ms, 0298ms total)
T072C 000:309 JLINK_GetCompileDateTime() (0000ms, 0298ms total)
T072C 000:313 JLINK_GetFirmwareString(...) (0000ms, 0298ms total)
T072C 000:319 JLINK_GetHardwareVersion()  returns 0x13880 (0000ms, 0298ms total)
T072C 000:327 JLINK_GetIdData(...) >0x2F8 JTAG>TotalIRLen = 4, IRPrint = 0x01 >0x30 JTAG> >0x210 JTAG> >0x78 JTAG> >0x40 JTAG> >0x40 JTAG> >0x48 JTAG> >0x40 JTAG> >0x40 JTAG> >0x40 JTAG> >0x48 JTAG> >0x40 JTAG> >0x40 JTAG> >0x40 JTAG> >0x30 JTAG> >0x40 JTAG> >0x48 JTAG> >0x40 JTAG> >0x30 JTAG> >0x78 JTAG> >0x40 JTAG> >0x40 JTAG> >0x48 JTAG> >0x40 JTAG> >0x40 JTAG> >0x40 JTAG> >0x48 JTAG> >0x40 JTAG> >0x40 JTAG> >0x30 JTAG> >0x40 JTAG> >0x40 JTAG> >0x40 JTAG> >0x40 JTAG> >0x40 JTAG> >0x48 JTAG>
 >0x40 JTAG> >0x78 JTAG> >0x40 JTAG> >0x30 JTAG> >0x40 JTAG> >0x40 JTAG> >0x40 JTAG> >0x40 JTAG> >0x40 JTAG> >0x48 JTAG> >0x40 JTAG> >0x78 JTAG> >0x40 JTAG> >0x30 JTAG> >0x40 JTAG> >0x48 JTAG> >0x40 JTAG> >0x40 JTAG> >0x40 JTAG> >0x30 JTAG> >0x40 JTAG> >0x48 JTAG> >0x40 JTAG>Found Cortex-M3 r2p0, Little endian. >0x48 JTAG> >0x48 JTAG> >0x40 JTAG> >0x40 JTAG> >0x30 JTAG> >0x30 JTAG> >0x48 JTAG> >0x40 JTAG> >0x78 JTAG> >0x40 JTAG> >0x30 JTAG> >0x40 JTAG> >0x48 JTAG> >0x40 JTAG> >0x40 JTAG> >0x40 JTAG>
 >0x30 JTAG> >0x40 JTAG> >0x48 JTAG> >0x40 JTAG>TPIU fitted. >0x40 JTAG> >0x40 JTAG> >0x30 JTAG> >0x40 JTAG> >0x48 JTAG> >0x40 JTAG>ETM fitted. >0x40 JTAG> >0x40 JTAG> >0x30 JTAG> >0x40 JTAG> >0x48 JTAG> >0x40 JTAG> >0x40 JTAG> >0x40 JTAG> >0x30 JTAG> >0x40 JTAG> >0x48 JTAG> >0x40 JTAG>FPUnit: 6 code (BP) slots and 2 literal slots >0x40 JTAG> >0x40 JTAG> >0x30 JTAG> >0x40 JTAG> >0x48 JTAG> >0x40 JTAG> >0x40 JTAG> >0x40 JTAG> >0x30 JTAG> >0x40 JTAG> >0x48 JTAG> >0x40 JTAG> >0x40 JTAG> >0x40 JTAG>
 >0x30 JTAG> >0x30 JTAG> >0x48 JTAG> >0x40 JTAG> ScanLen=4 NumDevices=1 aId[0]=0x4BA00477 aIrRead[0]=0 aScanLen[0]=0 aScanRead[0]=0 (0079ms, 0377ms total)
T072C 000:406 JLINK_JTAG_GetDeviceID(DeviceIndex = 0)  returns 0x4BA00477 (0000ms, 0377ms total)
T072C 000:406 JLINK_JTAG_GetDeviceInfo(DeviceIndex = 0)  returns 0x00 (0000ms, 0377ms total)
T072C 000:406 JLINK_GetDeviceFamily()  returns 3 (0000ms, 0377ms total)
T072C 000:407 JLINK_ReadMem (0xE00FFFF0, 0x0010 Bytes, ...) -- CPU is running -- CPU_ReadMem(16 bytes @ 0xE00FFFF0) -- Data:  0D 00 00 00 10 00 00 00 05 00 00 00 B1 00 00 00  returns 0x00 (0004ms, 0381ms total)
T072C 000:411 JLINK_ReadMem (0xE00FFFD0, 0x0020 Bytes, ...) -- CPU is running -- CPU_ReadMem(32 bytes @ 0xE00FFFD0) -- Data:  00 00 00 00 00 00 00 00 00 00 00 00 00 00 00 00 ...  returns 0x00 (0001ms, 0382ms total)
T072C 000:412 JLINK_ReadMem (0xE00FF000, 0x0018 Bytes, ...) -- CPU is running -- CPU_ReadMem(24 bytes @ 0xE00FF000) -- Data:  03 F0 F0 FF 03 20 F0 FF 03 30 F0 FF 03 10 F0 FF ...  returns 0x00 (0001ms, 0383ms total)
T072C 000:413 JLINK_ReadMemU32(0xE000ED00, 0x0001 Items, ...) -- CPU is running -- CPU_ReadMem(4 bytes @ 0xE000ED00) -- Data:  30 C2 2F 41  returns 0x01 (0001ms, 0384ms total)
T072C 000:414 JLINK_SetResetType(JLINKARM_RESET_TYPE_NORMAL)  returns ??? (0000ms, 0384ms total)
T072C 000:414 JLINK_Reset() >0x78 JTAG> >0x78 JTAG> >0x40 JTAG> >0x40 JTAG> >0x48 JTAG> >0x40 JTAG> >0x40 JTAG> >0x40 JTAG> >0x48 JTAG> >0x40 JTAG> >0x40 JTAG> >0x30 JTAG> >0x40 JTAG> >0x40 JTAG> >0x40 JTAG> >0x40 JTAG> >0x40 JTAG> >0x48 JTAG> >0x40 JTAG> >0x78 JTAG> >0x40 JTAG> >0x30 JTAG> >0x40 JTAG> >0x40 JTAG> >0x40 JTAG> >0x40 JTAG> >0x40 JTAG> >0x48 JTAG> >0x40 JTAG> >0x78 JTAG> >0x40 JTAG> >0x30 JTAG> >0x40 JTAG> >0x48 JTAG> >0x40 JTAG> >0x40 JTAG> >0x40 JTAG> >0x30 JTAG> >0x40 JTAG> >0x48 JTAG>
 >0x40 JTAG>Found Cortex-M3 r2p0, Little endian. >0x48 JTAG> >0x48 JTAG> >0x40 JTAG> >0x40 JTAG> >0x30 JTAG> >0x30 JTAG> >0x48 JTAG> >0x40 JTAG> >0x78 JTAG> >0x40 JTAG> >0x30 JTAG> >0x40 JTAG> >0x48 JTAG> >0x40 JTAG> >0x40 JTAG> >0x40 JTAG> >0x30 JTAG> >0x40 JTAG> >0x48 JTAG> >0x40 JTAG>TPIU fitted. >0x40 JTAG> >0x40 JTAG> >0x30 JTAG> >0x40 JTAG> >0x48 JTAG> >0x40 JTAG>ETM fitted. >0x40 JTAG> >0x40 JTAG> >0x30 JTAG> >0x40 JTAG> >0x48 JTAG> >0x40 JTAG> >0x40 JTAG> >0x40 JTAG> >0x30 JTAG> >0x40 JTAG>
 >0x48 JTAG> >0x40 JTAG>FPUnit: 6 code (BP) slots and 2 literal slots >0x40 JTAG> >0x40 JTAG> >0x30 JTAG> >0x40 JTAG> >0x48 JTAG> >0x40 JTAG> >0x40 JTAG> >0x40 JTAG> >0x30 JTAG> >0x40 JTAG> >0x48 JTAG> >0x40 JTAG> >0x40 JTAG> >0x40 JTAG> >0x30 JTAG> >0x30 JTAG> >0x48 JTAG> >0x40 JTAG> -- CPU is running -- CPU_WriteMem(4 bytes @ 0xE000EDF0) -- CPU is running -- CPU_WriteMem(4 bytes @ 0xE000EDFC) -- CPU is running -- CPU_WriteMem(4 bytes @ 0xE000ED0C) -- CPU is running -- CPU_ReadMem(4 bytes @ 0xE000EDF0)
 -- CPU is running -- CPU_ReadMem(4 bytes @ 0xE000EDF0) -- CPU is running -- CPU_WriteMem(4 bytes @ 0xE000EDF0) -- CPU is running -- CPU_WriteMem(4 bytes @ 0xE000EDFC) -- CPU is running -- CPU_ReadMem(4 bytes @ 0xE000EDF0) >0xB8 JTAG> >0x40 JTAG> >0x30 JTAG> >0x40 JTAG> >0x48 JTAG> >0x40 JTAG> -- CPU_WriteMem(4 bytes @ 0xE000EDFC) -- CPU_WriteMem(4 bytes @ 0xE0001028) -- CPU_WriteMem(4 bytes @ 0xE0001038) -- CPU_WriteMem(4 bytes @ 0xE0001048) -- CPU_WriteMem(4 bytes @ 0xE0001058)
 -- CPU_WriteMem(4 bytes @ 0xE000EDFC) -- CPU_WriteMem(4 bytes @ 0xE0001028) -- CPU_WriteMem(4 bytes @ 0xE0001028) -- CPU_WriteMem(4 bytes @ 0xE000EDFC) -- CPU_WriteMem(4 bytes @ 0xE0001028) -- CPU_WriteMem(4 bytes @ 0xE0001028) -- CPU_WriteMem(4 bytes @ 0xE000EDFC) -- CPU_WriteMem(4 bytes @ 0xE0001028) -- CPU_WriteMem(4 bytes @ 0xE0001028) -- CPU_WriteMem(4 bytes @ 0xE000EDFC) -- CPU_WriteMem(4 bytes @ 0xE0001028) -- CPU_WriteMem(4 bytes @ 0xE0001028) -- CPU_WriteMem(4 bytes @ 0xE000EDFC)
 -- CPU_WriteMem(4 bytes @ 0xE0001050) -- CPU_WriteMem(4 bytes @ 0xE0001054) -- CPU_WriteMem(4 bytes @ 0xE0001058) -- CPU_WriteMem(4 bytes @ 0xE000EDFC) -- CPU_WriteMem(4 bytes @ 0xE0001058) -- CPU_ReadMem(4 bytes @ 0x00000004) -- CPU_ReadMem(4 bytes @ 0xE0002000) -- CPU_ReadMem(4 bytes @ 0xE0002008) -- CPU_ReadMem(4 bytes @ 0xE000200C) -- CPU_ReadMem(4 bytes @ 0xE0002010) -- CPU_ReadMem(4 bytes @ 0xE0002014) -- CPU_ReadMem(4 bytes @ 0xE0002018) -- CPU_ReadMem(4 bytes @ 0xE000201C)
 -- CPU_WriteMem(4 bytes @ 0xE0002000) -- CPU_WriteMem(4 bytes @ 0xE0002008) -- CPU_WriteMem(4 bytes @ 0xE000200C) -- CPU_WriteMem(4 bytes @ 0xE0002010) -- CPU_WriteMem(4 bytes @ 0xE0002014) -- CPU_WriteMem(4 bytes @ 0xE0002018) -- CPU_WriteMem(4 bytes @ 0xE000201C)
                JLINK_ReadMemHW(0x400FC040, 0x0004 Bytes, ...) -- CPU_ReadMem(4 bytes @ 0x400FC040) -- Data:  01 00 00 00  returns 0x00 (0001ms, 0001ms total)
               -- MA0 is in flash -- Unmirror addr 0x000000E0 -- CPU_WriteMem(4 bytes @ 0xE0002000) -- CPU_WriteMem(4 bytes @ 0xE0002008) -- CPU_WriteMem(4 bytes @ 0xE000200C) -- CPU_WriteMem(4 bytes @ 0xE0002010) -- CPU_WriteMem(4 bytes @ 0xE0002014) -- CPU_WriteMem(4 bytes @ 0xE0002018) -- CPU_WriteMem(4 bytes @ 0xE000201C) -- CPU_WriteMem(4 bytes @ 0xE0002000) >0x06 JTAG> (0344ms, 0728ms total)
T072C 000:758 JLINK_Halt()  returns 0x00 (0000ms, 0728ms total)
T072C 000:758 JLINK_IsHalted() -- Unmirror addr 0x000000E0  returns TRUE (0000ms, 0728ms total)
T072C 000:758 JLINK_ReadMemU32(0xE000EDF0, 0x0001 Items, ...) -- CPU_ReadMem(4 bytes @ 0xE000EDF0) -- Data:  03 00 03 00  returns 0x01 (0001ms, 0729ms total)
T072C 000:759 JLINK_WriteU32(0xE000EDF0, 0xA05F0003) -- CPU_WriteMem(4 bytes @ 0xE000EDF0) -- Invalidate MA0 status  returns 0x00 (0001ms, 0730ms total)
T072C 000:760 JLINK_WriteU32(0xE000EDFC, 0x01000000) -- CPU_WriteMem(4 bytes @ 0xE000EDFC)  returns 0x00 (0001ms, 0731ms total)
T072C 000:767 JLINK_GetHWStatus(...)  returns 0x00 (0001ms, 0732ms total)
T072C 000:773 JLINK_GetNumBPUnits(Type = 0xFFFFFF00)  returns 0x06 (0000ms, 0732ms total)
T072C 000:773 JLINK_GetNumBPUnits(Type = 0xF0)  returns 0x2000 (0000ms, 0732ms total)
T072C 000:773 JLINK_GetNumWPUnits()  returns 0x04 (0000ms, 0732ms total)
T072C 000:778 JLINK_GetSpeed()  returns 0x7D0 (0000ms, 0732ms total)
T072C 000:781 JLINK_ReadMemU32(0xE000E004, 0x0001 Items, ...) -- CPU_ReadMem(4 bytes @ 0xE000E004) -- Data:  01 00 00 00  returns 0x01 (0001ms, 0733ms total)
T072C 000:782 JLINK_ReadMemU32(0xE000E004, 0x0001 Items, ...) -- CPU_ReadMem(4 bytes @ 0xE000E004) -- Data:  01 00 00 00  returns 0x01 (0001ms, 0734ms total)
T072C 000:783 JLINK_WriteMem(0xE0001000, 0x001C Bytes, ...) -- Data:  01 00 00 00 00 00 00 00 00 00 00 00 00 00 00 00 ... -- CPU_WriteMem(28 bytes @ 0xE0001000)  returns 0x1C (0001ms, 0735ms total)
T072C 000:784 JLINK_ReadMem (0xE0001000, 0x001C Bytes, ...) -- CPU_ReadMem(28 bytes @ 0xE0001000) -- Data:  01 00 00 40 00 00 00 00 00 00 00 00 00 00 00 00 ...  returns 0x00 (0001ms, 0736ms total)
T072C 000:785 JLINK_Halt()  returns 0x00 (0000ms, 0736ms total)
T072C 000:785 JLINK_IsHalted()
                JLINK_ReadMemHW(0x400FC040, 0x0004 Bytes, ...) -- CPU_ReadMem(4 bytes @ 0x400FC040) -- Data:  01 00 00 00  returns 0x00 (0001ms, 0001ms total)
               -- MA0 is in flash -- Unmirror addr 0x000000E0  returns TRUE (0001ms, 0737ms total)
T072C 000:788 JLINK_WriteMem(0x10000000, 0x01E4 Bytes, ...) -- Data:  00 BE 0A E0 0D 78 2D 06 68 40 08 24 40 00 00 D3 ... -- CPU_WriteMem(484 bytes @ 0x10000000)  returns 0x1E4 (0008ms, 0744ms total)
T072C 000:796 JLINK_WriteReg(R0, 0x00000000)  returns 0x00 (0000ms, 0744ms total)
T072C 000:796 JLINK_WriteReg(R1, 0x00B71B00)  returns 0x00 (0000ms, 0744ms total)
T072C 000:796 JLINK_WriteReg(R2, 0x00000001)  returns 0x00 (0000ms, 0744ms total)
T072C 000:796 JLINK_WriteReg(R3, 0x00000000)  returns 0x00 (0000ms, 0744ms total)
T072C 000:796 JLINK_WriteReg(R4, 0x00000000)  returns 0x00 (0000ms, 0744ms total)
T072C 000:796 JLINK_WriteReg(R5, 0x00000000)  returns 0x00 (0000ms, 0744ms total)
T072C 000:796 JLINK_WriteReg(R6, 0x00000000)  returns 0x00 (0000ms, 0744ms total)
T072C 000:796 JLINK_WriteReg(R7, 0x00000000)  returns 0x00 (0000ms, 0744ms total)
T072C 000:796 JLINK_WriteReg(R8, 0x00000000)  returns 0x00 (0000ms, 0744ms total)
T072C 000:796 JLINK_WriteReg(R9, 0x100001DC)  returns 0x00 (0000ms, 0744ms total)
T072C 000:796 JLINK_WriteReg(R10, 0x00000000)  returns 0x00 (0000ms, 0744ms total)
T072C 000:796 JLINK_WriteReg(R11, 0x00000000)  returns 0x00 (0000ms, 0744ms total)
T072C 000:796 JLINK_WriteReg(R12, 0x00000000)  returns 0x00 (0000ms, 0744ms total)
T072C 000:796 JLINK_WriteReg(R13, 0x10000800)  returns 0x00 (0000ms, 0744ms total)
T072C 000:796 JLINK_WriteReg(R14, 0x10000001)  returns 0x00 (0000ms, 0744ms total)
T072C 000:796 JLINK_WriteReg(R15, 0x10000044)  returns 0x00 (0000ms, 0744ms total)
T072C 000:797 JLINK_WriteReg(XPSR, 0x01000000)  returns 0x00 (0000ms, 0744ms total)
T072C 000:797 JLINK_WriteReg(MSP, 0x10000800)  returns 0x00 (0000ms, 0744ms total)
T072C 000:797 JLINK_WriteReg(PSP, 0x10000800)  returns 0x00 (0000ms, 0744ms total)
T072C 000:797 JLINK_WriteReg(CFBP, 0x00000000)  returns 0x00 (0000ms, 0744ms total)
T072C 000:797 JLINK_SetBPEx(Addr = 0x10000000, Type = 0xFFFFFFF2)  returns 0x00000001 (0000ms, 0744ms total)
T072C 000:797 JLINK_Go() -- Invalidate MA0 status -- CPU_WriteMem(4 bytes @ 0xE0002008) -- CPU_WriteMem(4 bytes @ 0xE000200C) -- CPU_WriteMem(4 bytes @ 0xE0002010) -- CPU_WriteMem(4 bytes @ 0xE0002014) -- CPU_WriteMem(4 bytes @ 0xE0002018) -- CPU_WriteMem(4 bytes @ 0xE000201C) (0008ms, 0752ms total)
T072C 000:805 JLINK_IsHalted()  returns TRUE (0005ms, 0757ms total)
T072C 000:810 JLINK_ReadReg(R15)  returns 0x10000000 (0000ms, 0752ms total)
T072C 000:810 JLINK_ClrBPEx(BPHandle = 0x00000001)  returns 0x00 (0000ms, 0752ms total)
T072C 000:810 JLINK_ReadReg(R0)  returns 0x00000000 (0000ms, 0752ms total)
T072C 000:811 JLINK_WriteReg(R0, 0x00000000)  returns 0x00 (0000ms, 0752ms total)
T072C 000:811 JLINK_WriteReg(R1, 0x00B71B00)  returns 0x00 (0000ms, 0752ms total)
T072C 000:811 JLINK_WriteReg(R2, 0x00000001)  returns 0x00 (0000ms, 0752ms total)
T072C 000:811 JLINK_WriteReg(R3, 0x00000000)  returns 0x00 (0000ms, 0752ms total)
T072C 000:811 JLINK_WriteReg(R4, 0x00000000)  returns 0x00 (0000ms, 0752ms total)
T072C 000:811 JLINK_WriteReg(R5, 0x00000000)  returns 0x00 (0000ms, 0752ms total)
T072C 000:811 JLINK_WriteReg(R6, 0x00000000)  returns 0x00 (0000ms, 0752ms total)
T072C 000:811 JLINK_WriteReg(R7, 0x00000000)  returns 0x00 (0000ms, 0752ms total)
T072C 000:811 JLINK_WriteReg(R8, 0x00000000)  returns 0x00 (0000ms, 0752ms total)
T072C 000:811 JLINK_WriteReg(R9, 0x100001DC)  returns 0x00 (0000ms, 0752ms total)
T072C 000:811 JLINK_WriteReg(R10, 0x00000000)  returns 0x00 (0000ms, 0752ms total)
T072C 000:811 JLINK_WriteReg(R11, 0x00000000)  returns 0x00 (0000ms, 0752ms total)
T072C 000:811 JLINK_WriteReg(R12, 0x00000000)  returns 0x00 (0000ms, 0752ms total)
T072C 000:811 JLINK_WriteReg(R13, 0x10000800)  returns 0x00 (0000ms, 0752ms total)
T072C 000:811 JLINK_WriteReg(R14, 0x10000001)  returns 0x00 (0000ms, 0752ms total)
T072C 000:811 JLINK_WriteReg(R15, 0x100000D0)  returns 0x00 (0000ms, 0752ms total)
T072C 000:811 JLINK_WriteReg(XPSR, 0x01000000)  returns 0x00 (0000ms, 0752ms total)
T072C 000:811 JLINK_WriteReg(MSP, 0x10000800)  returns 0x00 (0000ms, 0752ms total)
T072C 000:811 JLINK_WriteReg(PSP, 0x10000800)  returns 0x00 (0000ms, 0752ms total)
T072C 000:811 JLINK_WriteReg(CFBP, 0x00000000)  returns 0x00 (0000ms, 0752ms total)
T072C 000:811 JLINK_SetBPEx(Addr = 0x10000000, Type = 0xFFFFFFF2)  returns 0x00000002 (0000ms, 0752ms total)
T072C 000:811 JLINK_Go() (0002ms, 0754ms total)
T072C 000:813 JLINK_IsHalted()  returns FALSE (0001ms, 0755ms total)
T072C 000:865 JLINK_IsHalted()  returns FALSE (0001ms, 0755ms total)
T072C 000:916 JLINK_IsHalted()  returns FALSE (0001ms, 0755ms total)
T072C 000:968 JLINK_IsHalted()  returns TRUE (0005ms, 0759ms total)
T072C 000:973 JLINK_ReadReg(R15)  returns 0x10000000 (0000ms, 0754ms total)
T072C 000:973 JLINK_ClrBPEx(BPHandle = 0x00000002)  returns 0x00 (0000ms, 0754ms total)
T072C 000:973 JLINK_ReadReg(R0)  returns 0x00000000 (0000ms, 0754ms total)
T072C 001:026 JLINK_WriteReg(R0, 0x00000001)  returns 0x00 (0001ms, 0755ms total)
T072C 001:027 JLINK_WriteReg(R1, 0x00B71B00)  returns 0x00 (0000ms, 0755ms total)
T072C 001:027 JLINK_WriteReg(R2, 0x00000001)  returns 0x00 (0000ms, 0755ms total)
T072C 001:027 JLINK_WriteReg(R3, 0x00000000)  returns 0x00 (0000ms, 0755ms total)
T072C 001:027 JLINK_WriteReg(R4, 0x00000000)  returns 0x00 (0000ms, 0755ms total)
T072C 001:027 JLINK_WriteReg(R5, 0x00000000)  returns 0x00 (0000ms, 0755ms total)
T072C 001:027 JLINK_WriteReg(R6, 0x00000000)  returns 0x00 (0000ms, 0755ms total)
T072C 001:027 JLINK_WriteReg(R7, 0x00000000)  returns 0x00 (0000ms, 0755ms total)
T072C 001:027 JLINK_WriteReg(R8, 0x00000000)  returns 0x00 (0000ms, 0755ms total)
T072C 001:027 JLINK_WriteReg(R9, 0x100001DC)  returns 0x00 (0000ms, 0755ms total)
T072C 001:027 JLINK_WriteReg(R10, 0x00000000)  returns 0x00 (0000ms, 0755ms total)
T072C 001:027 JLINK_WriteReg(R11, 0x00000000)  returns 0x00 (0000ms, 0755ms total)
T072C 001:027 JLINK_WriteReg(R12, 0x00000000)  returns 0x00 (0000ms, 0755ms total)
T072C 001:027 JLINK_WriteReg(R13, 0x10000800)  returns 0x00 (0000ms, 0755ms total)
T072C 001:027 JLINK_WriteReg(R14, 0x10000001)  returns 0x00 (0000ms, 0755ms total)
T072C 001:027 JLINK_WriteReg(R15, 0x100000CC)  returns 0x00 (0000ms, 0755ms total)
T072C 001:027 JLINK_WriteReg(XPSR, 0x01000000)  returns 0x00 (0000ms, 0755ms total)
T072C 001:027 JLINK_WriteReg(MSP, 0x10000800)  returns 0x00 (0000ms, 0755ms total)
T072C 001:027 JLINK_WriteReg(PSP, 0x10000800)  returns 0x00 (0000ms, 0755ms total)
T072C 001:027 JLINK_WriteReg(CFBP, 0x00000000)  returns 0x00 (0000ms, 0755ms total)
T072C 001:027 JLINK_SetBPEx(Addr = 0x10000000, Type = 0xFFFFFFF2)  returns 0x00000003 (0000ms, 0755ms total)
T072C 001:027 JLINK_Go() (0003ms, 0758ms total)
T072C 001:030 JLINK_IsHalted()  returns TRUE (0005ms, 0763ms total)
T072C 001:035 JLINK_ReadReg(R15)  returns 0x10000000 (0000ms, 0758ms total)
T072C 001:035 JLINK_ClrBPEx(BPHandle = 0x00000003)  returns 0x00 (0000ms, 0758ms total)
T072C 001:035 JLINK_ReadReg(R0)  returns 0x00000000 (0000ms, 0758ms total)
T072C 001:038 JLINK_WriteMem(0x10000000, 0x01E4 Bytes, ...) -- Data:  00 BE 0A E0 0D 78 2D 06 68 40 08 24 40 00 00 D3 ... -- CPU_WriteMem(484 bytes @ 0x10000000)  returns 0x1E4 (0009ms, 0767ms total)
T072C 001:047 JLINK_WriteReg(R0, 0x00000000)  returns 0x00 (0000ms, 0767ms total)
T072C 001:047 JLINK_WriteReg(R1, 0x00B71B00)  returns 0x00 (0000ms, 0767ms total)
T072C 001:047 JLINK_WriteReg(R2, 0x00000002)  returns 0x00 (0000ms, 0767ms total)
T072C 001:047 JLINK_WriteReg(R3, 0x00000000)  returns 0x00 (0000ms, 0767ms total)
T072C 001:047 JLINK_WriteReg(R4, 0x00000000)  returns 0x00 (0000ms, 0767ms total)
T072C 001:047 JLINK_WriteReg(R5, 0x00000000)  returns 0x00 (0000ms, 0767ms total)
T072C 001:047 JLINK_WriteReg(R6, 0x00000000)  returns 0x00 (0000ms, 0767ms total)
T072C 001:047 JLINK_WriteReg(R7, 0x00000000)  returns 0x00 (0000ms, 0767ms total)
T072C 001:047 JLINK_WriteReg(R8, 0x00000000)  returns 0x00 (0000ms, 0767ms total)
T072C 001:047 JLINK_WriteReg(R9, 0x100001DC)  returns 0x00 (0000ms, 0767ms total)
T072C 001:047 JLINK_WriteReg(R10, 0x00000000)  returns 0x00 (0000ms, 0767ms total)
T072C 001:047 JLINK_WriteReg(R11, 0x00000000)  returns 0x00 (0000ms, 0767ms total)
T072C 001:047 JLINK_WriteReg(R12, 0x00000000)  returns 0x00 (0000ms, 0767ms total)
T072C 001:047 JLINK_WriteReg(R13, 0x10000800)  returns 0x00 (0000ms, 0767ms total)
T072C 001:047 JLINK_WriteReg(R14, 0x10000001)  returns 0x00 (0000ms, 0767ms total)
T072C 001:047 JLINK_WriteReg(R15, 0x10000044)  returns 0x00 (0000ms, 0767ms total)
T072C 001:047 JLINK_WriteReg(XPSR, 0x01000000)  returns 0x00 (0000ms, 0767ms total)
T072C 001:047 JLINK_WriteReg(MSP, 0x10000800)  returns 0x00 (0000ms, 0767ms total)
T072C 001:047 JLINK_WriteReg(PSP, 0x10000800)  returns 0x00 (0000ms, 0767ms total)
T072C 001:047 JLINK_WriteReg(CFBP, 0x00000000)  returns 0x00 (0000ms, 0767ms total)
T072C 001:047 JLINK_SetBPEx(Addr = 0x10000000, Type = 0xFFFFFFF2)  returns 0x00000004 (0000ms, 0767ms total)
T072C 001:047 JLINK_Go() (0002ms, 0769ms total)
T072C 001:049 JLINK_IsHalted()  returns TRUE (0005ms, 0774ms total)
T072C 001:054 JLINK_ReadReg(R15)  returns 0x10000000 (0000ms, 0769ms total)
T072C 001:054 JLINK_ClrBPEx(BPHandle = 0x00000004)  returns 0x00 (0000ms, 0769ms total)
T072C 001:054 JLINK_ReadReg(R0)  returns 0x00000000 (0000ms, 0769ms total)
T072C 001:055 JLINK_WriteMem(0x10000204, 0x0400 Bytes, ...) -- Data:  E8 44 00 10 E1 00 00 00 E9 00 00 00 EB 00 00 00 ... -- CPU_WriteMem(1024 bytes @ 0x10000204)  returns 0x400 (0015ms, 0784ms total)
T072C 001:070 JLINK_WriteReg(R0, 0x00000000)  returns 0x00 (0000ms, 0784ms total)
T072C 001:070 JLINK_WriteReg(R1, 0x00000400)  returns 0x00 (0000ms, 0784ms total)
T072C 001:070 JLINK_WriteReg(R2, 0x10000204)  returns 0x00 (0000ms, 0784ms total)
T072C 001:070 JLINK_WriteReg(R3, 0x00000000)  returns 0x00 (0000ms, 0784ms total)
T072C 001:070 JLINK_WriteReg(R4, 0x00000000)  returns 0x00 (0000ms, 0784ms total)
T072C 001:070 JLINK_WriteReg(R5, 0x00000000)  returns 0x00 (0000ms, 0784ms total)
T072C 001:070 JLINK_WriteReg(R6, 0x00000000)  returns 0x00 (0000ms, 0784ms total)
T072C 001:070 JLINK_WriteReg(R7, 0x00000000)  returns 0x00 (0000ms, 0784ms total)
T072C 001:070 JLINK_WriteReg(R8, 0x00000000)  returns 0x00 (0000ms, 0784ms total)
T072C 001:070 JLINK_WriteReg(R9, 0x100001DC)  returns 0x00 (0000ms, 0784ms total)
T072C 001:070 JLINK_WriteReg(R10, 0x00000000)  returns 0x00 (0000ms, 0784ms total)
T072C 001:070 JLINK_WriteReg(R11, 0x00000000)  returns 0x00 (0000ms, 0784ms total)
T072C 001:070 JLINK_WriteReg(R12, 0x00000000)  returns 0x00 (0000ms, 0784ms total)
T072C 001:070 JLINK_WriteReg(R13, 0x10000800)  returns 0x00 (0000ms, 0784ms total)
T072C 001:070 JLINK_WriteReg(R14, 0x10000001)  returns 0x00 (0000ms, 0784ms total)
T072C 001:070 JLINK_WriteReg(R15, 0x10000156)  returns 0x00 (0000ms, 0784ms total)
T072C 001:070 JLINK_WriteReg(XPSR, 0x01000000)  returns 0x00 (0000ms, 0784ms total)
T072C 001:070 JLINK_WriteReg(MSP, 0x10000800)  returns 0x00 (0000ms, 0784ms total)
T072C 001:070 JLINK_WriteReg(PSP, 0x10000800)  returns 0x00 (0000ms, 0784ms total)
T072C 001:070 JLINK_WriteReg(CFBP, 0x00000000)  returns 0x00 (0000ms, 0784ms total)
T072C 001:070 JLINK_SetBPEx(Addr = 0x10000000, Type = 0xFFFFFFF2)  returns 0x00000005 (0000ms, 0784ms total)
T072C 001:071 JLINK_Go() (0002ms, 0787ms total)
T072C 001:073 JLINK_IsHalted()  returns FALSE (0001ms, 0788ms total)
T072C 001:124 JLINK_IsHalted()  returns TRUE (0005ms, 0792ms total)
T072C 001:129 JLINK_ReadReg(R15)  returns 0x10000000 (0000ms, 0787ms total)
T072C 001:129 JLINK_ClrBPEx(BPHandle = 0x00000005)  returns 0x00 (0000ms, 0787ms total)
T072C 001:129 JLINK_ReadReg(R0)  returns 0x00000000 (0000ms, 0787ms total)
T072C 001:130 JLINK_WriteMem(0x10000204, 0x0400 Bytes, ...) -- Data:  E0 74 B8 EB 00 00 61 EB 04 01 E9 E7 83 F0 00 43 ... -- CPU_WriteMem(1024 bytes @ 0x10000204)  returns 0x400 (0016ms, 0803ms total)
T072C 001:146 JLINK_WriteReg(R0, 0x00000400)  returns 0x00 (0000ms, 0803ms total)
T072C 001:146 JLINK_WriteReg(R1, 0x00000400)  returns 0x00 (0000ms, 0803ms total)
T072C 001:146 JLINK_WriteReg(R2, 0x10000204)  returns 0x00 (0000ms, 0803ms total)
T072C 001:146 JLINK_WriteReg(R3, 0x00000000)  returns 0x00 (0000ms, 0803ms total)
T072C 001:146 JLINK_WriteReg(R4, 0x00000000)  returns 0x00 (0000ms, 0803ms total)
T072C 001:146 JLINK_WriteReg(R5, 0x00000000)  returns 0x00 (0000ms, 0803ms total)
T072C 001:146 JLINK_WriteReg(R6, 0x00000000)  returns 0x00 (0000ms, 0803ms total)
T072C 001:146 JLINK_WriteReg(R7, 0x00000000)  returns 0x00 (0000ms, 0803ms total)
T072C 001:146 JLINK_WriteReg(R8, 0x00000000)  returns 0x00 (0000ms, 0803ms total)
T072C 001:146 JLINK_WriteReg(R9, 0x100001DC)  returns 0x00 (0000ms, 0803ms total)
T072C 001:146 JLINK_WriteReg(R10, 0x00000000)  returns 0x00 (0000ms, 0803ms total)
T072C 001:146 JLINK_WriteReg(R11, 0x00000000)  returns 0x00 (0000ms, 0803ms total)
T072C 001:146 JLINK_WriteReg(R12, 0x00000000)  returns 0x00 (0000ms, 0803ms total)
T072C 001:146 JLINK_WriteReg(R13, 0x10000800)  returns 0x00 (0000ms, 0803ms total)
T072C 001:146 JLINK_WriteReg(R14, 0x10000001)  returns 0x00 (0000ms, 0803ms total)
T072C 001:146 JLINK_WriteReg(R15, 0x10000156)  returns 0x00 (0000ms, 0803ms total)
T072C 001:146 JLINK_WriteReg(XPSR, 0x01000000)  returns 0x00 (0000ms, 0803ms total)
T072C 001:146 JLINK_WriteReg(MSP, 0x10000800)  returns 0x00 (0000ms, 0803ms total)
T072C 001:146 JLINK_WriteReg(PSP, 0x10000800)  returns 0x00 (0000ms, 0803ms total)
T072C 001:146 JLINK_WriteReg(CFBP, 0x00000000)  returns 0x00 (0000ms, 0803ms total)
T072C 001:146 JLINK_SetBPEx(Addr = 0x10000000, Type = 0xFFFFFFF2)  returns 0x00000006 (0000ms, 0803ms total)
T072C 001:146 JLINK_Go() (0002ms, 0805ms total)
T072C 001:148 JLINK_IsHalted()  returns FALSE (0002ms, 0807ms total)
T072C 001:201 JLINK_IsHalted()  returns TRUE (0004ms, 0809ms total)
T072C 001:205 JLINK_ReadReg(R15)  returns 0x10000000 (0000ms, 0805ms total)
T072C 001:205 JLINK_ClrBPEx(BPHandle = 0x00000006)  returns 0x00 (0000ms, 0805ms total)
T072C 001:205 JLINK_ReadReg(R0)  returns 0x00000000 (0000ms, 0805ms total)
T072C 001:207 JLINK_WriteMem(0x10000204, 0x0400 Bytes, ...) -- Data:  73 EB 05 07 05 D3 12 1B 63 EB 05 03 06 43 4C EA ... -- CPU_WriteMem(1024 bytes @ 0x10000204)  returns 0x400 (0016ms, 0821ms total)
T072C 001:223 JLINK_WriteReg(R0, 0x00000800)  returns 0x00 (0000ms, 0821ms total)
T072C 001:223 JLINK_WriteReg(R1, 0x00000400)  returns 0x00 (0000ms, 0821ms total)
T072C 001:223 JLINK_WriteReg(R2, 0x10000204)  returns 0x00 (0000ms, 0821ms total)
T072C 001:223 JLINK_WriteReg(R3, 0x00000000)  returns 0x00 (0000ms, 0821ms total)
T072C 001:223 JLINK_WriteReg(R4, 0x00000000)  returns 0x00 (0000ms, 0821ms total)
T072C 001:223 JLINK_WriteReg(R5, 0x00000000)  returns 0x00 (0000ms, 0821ms total)
T072C 001:223 JLINK_WriteReg(R6, 0x00000000)  returns 0x00 (0000ms, 0821ms total)
T072C 001:223 JLINK_WriteReg(R7, 0x00000000)  returns 0x00 (0000ms, 0821ms total)
T072C 001:223 JLINK_WriteReg(R8, 0x00000000)  returns 0x00 (0000ms, 0821ms total)
T072C 001:223 JLINK_WriteReg(R9, 0x100001DC)  returns 0x00 (0000ms, 0821ms total)
T072C 001:223 JLINK_WriteReg(R10, 0x00000000)  returns 0x00 (0000ms, 0821ms total)
T072C 001:223 JLINK_WriteReg(R11, 0x00000000)  returns 0x00 (0000ms, 0821ms total)
T072C 001:223 JLINK_WriteReg(R12, 0x00000000)  returns 0x00 (0000ms, 0821ms total)
T072C 001:223 JLINK_WriteReg(R13, 0x10000800)  returns 0x00 (0000ms, 0821ms total)
T072C 001:223 JLINK_WriteReg(R14, 0x10000001)  returns 0x00 (0000ms, 0821ms total)
T072C 001:223 JLINK_WriteReg(R15, 0x10000156)  returns 0x00 (0000ms, 0821ms total)
T072C 001:223 JLINK_WriteReg(XPSR, 0x01000000)  returns 0x00 (0000ms, 0821ms total)
T072C 001:223 JLINK_WriteReg(MSP, 0x10000800)  returns 0x00 (0000ms, 0821ms total)
T072C 001:223 JLINK_WriteReg(PSP, 0x10000800)  returns 0x00 (0000ms, 0821ms total)
T072C 001:223 JLINK_WriteReg(CFBP, 0x00000000)  returns 0x00 (0000ms, 0821ms total)
T072C 001:223 JLINK_SetBPEx(Addr = 0x10000000, Type = 0xFFFFFFF2)  returns 0x00000007 (0000ms, 0821ms total)
T072C 001:223 JLINK_Go() (0003ms, 0824ms total)
T072C 001:226 JLINK_IsHalted()  returns FALSE (0000ms, 0824ms total)
T072C 001:277 JLINK_IsHalted()  returns TRUE (0005ms, 0829ms total)
T072C 001:282 JLINK_ReadReg(R15)  returns 0x10000000 (0000ms, 0824ms total)
T072C 001:282 JLINK_ClrBPEx(BPHandle = 0x00000007)  returns 0x00 (0000ms, 0824ms total)
T072C 001:282 JLINK_ReadReg(R0)  returns 0x00000000 (0000ms, 0824ms total)
T072C 001:283 JLINK_WriteMem(0x10000204, 0x0400 Bytes, ...) -- Data:  63 65 5C 6C 70 63 31 37 78 78 5F 61 64 63 2E 63 ... -- CPU_WriteMem(1024 bytes @ 0x10000204)  returns 0x400 (0014ms, 0838ms total)
T072C 001:297 JLINK_WriteReg(R0, 0x00000C00)  returns 0x00 (0000ms, 0838ms total)
T072C 001:297 JLINK_WriteReg(R1, 0x00000400)  returns 0x00 (0000ms, 0838ms total)
T072C 001:297 JLINK_WriteReg(R2, 0x10000204)  returns 0x00 (0000ms, 0838ms total)
T072C 001:297 JLINK_WriteReg(R3, 0x00000000)  returns 0x00 (0000ms, 0838ms total)
T072C 001:297 JLINK_WriteReg(R4, 0x00000000)  returns 0x00 (0000ms, 0838ms total)
T072C 001:297 JLINK_WriteReg(R5, 0x00000000)  returns 0x00 (0000ms, 0838ms total)
T072C 001:297 JLINK_WriteReg(R6, 0x00000000)  returns 0x00 (0000ms, 0838ms total)
T072C 001:297 JLINK_WriteReg(R7, 0x00000000)  returns 0x00 (0000ms, 0838ms total)
T072C 001:297 JLINK_WriteReg(R8, 0x00000000)  returns 0x00 (0000ms, 0838ms total)
T072C 001:297 JLINK_WriteReg(R9, 0x100001DC)  returns 0x00 (0000ms, 0838ms total)
T072C 001:297 JLINK_WriteReg(R10, 0x00000000)  returns 0x00 (0000ms, 0838ms total)
T072C 001:297 JLINK_WriteReg(R11, 0x00000000)  returns 0x00 (0000ms, 0838ms total)
T072C 001:297 JLINK_WriteReg(R12, 0x00000000)  returns 0x00 (0000ms, 0838ms total)
T072C 001:297 JLINK_WriteReg(R13, 0x10000800)  returns 0x00 (0000ms, 0838ms total)
T072C 001:297 JLINK_WriteReg(R14, 0x10000001)  returns 0x00 (0000ms, 0838ms total)
T072C 001:297 JLINK_WriteReg(R15, 0x10000156)  returns 0x00 (0000ms, 0838ms total)
T072C 001:297 JLINK_WriteReg(XPSR, 0x01000000)  returns 0x00 (0000ms, 0838ms total)
T072C 001:297 JLINK_WriteReg(MSP, 0x10000800)  returns 0x00 (0000ms, 0838ms total)
T072C 001:297 JLINK_WriteReg(PSP, 0x10000800)  returns 0x00 (0000ms, 0838ms total)
T072C 001:297 JLINK_WriteReg(CFBP, 0x00000000)  returns 0x00 (0000ms, 0838ms total)
T072C 001:297 JLINK_SetBPEx(Addr = 0x10000000, Type = 0xFFFFFFF2)  returns 0x00000008 (0000ms, 0838ms total)
T072C 001:297 JLINK_Go() (0003ms, 0841ms total)
T072C 001:300 JLINK_IsHalted()  returns FALSE (0001ms, 0842ms total)
T072C 001:352 JLINK_IsHalted()  returns TRUE (0005ms, 0846ms total)
T072C 001:357 JLINK_ReadReg(R15)  returns 0x10000000 (0000ms, 0841ms total)
T072C 001:357 JLINK_ClrBPEx(BPHandle = 0x00000008)  returns 0x00 (0000ms, 0841ms total)
T072C 001:357 JLINK_ReadReg(R0)  returns 0x00000000 (0000ms, 0841ms total)
T072C 001:358 JLINK_WriteMem(0x10000204, 0x0400 Bytes, ...) -- Data:  90 B1 03 F0 6B FB 06 46 06 E0 00 BF 03 F0 66 FB ... -- CPU_WriteMem(1024 bytes @ 0x10000204)  returns 0x400 (0015ms, 0856ms total)
T072C 001:373 JLINK_WriteReg(R0, 0x00001000)  returns 0x00 (0000ms, 0856ms total)
T072C 001:373 JLINK_WriteReg(R1, 0x00000400)  returns 0x00 (0000ms, 0856ms total)
T072C 001:373 JLINK_WriteReg(R2, 0x10000204)  returns 0x00 (0000ms, 0856ms total)
T072C 001:373 JLINK_WriteReg(R3, 0x00000000)  returns 0x00 (0000ms, 0856ms total)
T072C 001:373 JLINK_WriteReg(R4, 0x00000000)  returns 0x00 (0000ms, 0856ms total)
T072C 001:373 JLINK_WriteReg(R5, 0x00000000)  returns 0x00 (0000ms, 0856ms total)
T072C 001:373 JLINK_WriteReg(R6, 0x00000000)  returns 0x00 (0000ms, 0856ms total)
T072C 001:373 JLINK_WriteReg(R7, 0x00000000)  returns 0x00 (0000ms, 0856ms total)
T072C 001:373 JLINK_WriteReg(R8, 0x00000000)  returns 0x00 (0000ms, 0856ms total)
T072C 001:373 JLINK_WriteReg(R9, 0x100001DC)  returns 0x00 (0000ms, 0856ms total)
T072C 001:373 JLINK_WriteReg(R10, 0x00000000)  returns 0x00 (0000ms, 0856ms total)
T072C 001:373 JLINK_WriteReg(R11, 0x00000000)  returns 0x00 (0000ms, 0856ms total)
T072C 001:373 JLINK_WriteReg(R12, 0x00000000)  returns 0x00 (0000ms, 0856ms total)
T072C 001:373 JLINK_WriteReg(R13, 0x10000800)  returns 0x00 (0000ms, 0856ms total)
T072C 001:373 JLINK_WriteReg(R14, 0x10000001)  returns 0x00 (0000ms, 0856ms total)
T072C 001:373 JLINK_WriteReg(R15, 0x10000156)  returns 0x00 (0000ms, 0856ms total)
T072C 001:373 JLINK_WriteReg(XPSR, 0x01000000)  returns 0x00 (0000ms, 0856ms total)
T072C 001:373 JLINK_WriteReg(MSP, 0x10000800)  returns 0x00 (0000ms, 0856ms total)
T072C 001:373 JLINK_WriteReg(PSP, 0x10000800)  returns 0x00 (0000ms, 0856ms total)
T072C 001:373 JLINK_WriteReg(CFBP, 0x00000000)  returns 0x00 (0000ms, 0856ms total)
T072C 001:373 JLINK_SetBPEx(Addr = 0x10000000, Type = 0xFFFFFFF2)  returns 0x00000009 (0000ms, 0856ms total)
T072C 001:373 JLINK_Go() (0003ms, 0859ms total)
T072C 001:376 JLINK_IsHalted()  returns FALSE (0001ms, 0860ms total)
T072C 001:428 JLINK_IsHalted()  returns TRUE (0005ms, 0864ms total)
T072C 001:433 JLINK_ReadReg(R15)  returns 0x10000000 (0000ms, 0859ms total)
T072C 001:433 JLINK_ClrBPEx(BPHandle = 0x00000009)  returns 0x00 (0000ms, 0859ms total)
T072C 001:433 JLINK_ReadReg(R0)  returns 0x00000000 (0000ms, 0859ms total)
T072C 001:434 JLINK_WriteMem(0x10000204, 0x0400 Bytes, ...) -- Data:  63 75 6C 61 74 65 20 00 34 30 30 6D 73 20 72 65 ... -- CPU_WriteMem(1024 bytes @ 0x10000204)  returns 0x400 (0015ms, 0874ms total)
T072C 001:449 JLINK_WriteReg(R0, 0x00001400)  returns 0x00 (0000ms, 0874ms total)
T072C 001:449 JLINK_WriteReg(R1, 0x00000400)  returns 0x00 (0000ms, 0874ms total)
T072C 001:449 JLINK_WriteReg(R2, 0x10000204)  returns 0x00 (0000ms, 0874ms total)
T072C 001:449 JLINK_WriteReg(R3, 0x00000000)  returns 0x00 (0000ms, 0874ms total)
T072C 001:449 JLINK_WriteReg(R4, 0x00000000)  returns 0x00 (0000ms, 0874ms total)
T072C 001:449 JLINK_WriteReg(R5, 0x00000000)  returns 0x00 (0001ms, 0875ms total)
T072C 001:450 JLINK_WriteReg(R6, 0x00000000)  returns 0x00 (0000ms, 0875ms total)
T072C 001:450 JLINK_WriteReg(R7, 0x00000000)  returns 0x00 (0000ms, 0875ms total)
T072C 001:450 JLINK_WriteReg(R8, 0x00000000)  returns 0x00 (0000ms, 0875ms total)
T072C 001:450 JLINK_WriteReg(R9, 0x100001DC)  returns 0x00 (0000ms, 0875ms total)
T072C 001:450 JLINK_WriteReg(R10, 0x00000000)  returns 0x00 (0000ms, 0875ms total)
T072C 001:450 JLINK_WriteReg(R11, 0x00000000)  returns 0x00 (0000ms, 0875ms total)
T072C 001:450 JLINK_WriteReg(R12, 0x00000000)  returns 0x00 (0000ms, 0875ms total)
T072C 001:450 JLINK_WriteReg(R13, 0x10000800)  returns 0x00 (0000ms, 0875ms total)
T072C 001:450 JLINK_WriteReg(R14, 0x10000001)  returns 0x00 (0000ms, 0875ms total)
T072C 001:450 JLINK_WriteReg(R15, 0x10000156)  returns 0x00 (0000ms, 0875ms total)
T072C 001:450 JLINK_WriteReg(XPSR, 0x01000000)  returns 0x00 (0000ms, 0875ms total)
T072C 001:450 JLINK_WriteReg(MSP, 0x10000800)  returns 0x00 (0000ms, 0875ms total)
T072C 001:450 JLINK_WriteReg(PSP, 0x10000800)  returns 0x00 (0000ms, 0875ms total)
T072C 001:450 JLINK_WriteReg(CFBP, 0x00000000)  returns 0x00 (0000ms, 0875ms total)
T072C 001:450 JLINK_SetBPEx(Addr = 0x10000000, Type = 0xFFFFFFF2)  returns 0x0000000A (0000ms, 0875ms total)
T072C 001:450 JLINK_Go() (0002ms, 0877ms total)
T072C 001:452 JLINK_IsHalted()  returns FALSE (0000ms, 0877ms total)
T072C 001:503 JLINK_IsHalted()  returns TRUE (0005ms, 0882ms total)
T072C 001:508 JLINK_ReadReg(R15)  returns 0x10000000 (0000ms, 0877ms total)
T072C 001:508 JLINK_ClrBPEx(BPHandle = 0x0000000A)  returns 0x00 (0000ms, 0877ms total)
T072C 001:508 JLINK_ReadReg(R0)  returns 0x00000000 (0000ms, 0877ms total)
T072C 001:509 JLINK_WriteMem(0x10000204, 0x0400 Bytes, ...) -- Data:  01 24 2B 46 32 A1 2C 48 05 F0 BE F8 DA F8 00 20 ... -- CPU_WriteMem(1024 bytes @ 0x10000204)  returns 0x400 (0016ms, 0893ms total)
T072C 001:525 JLINK_WriteReg(R0, 0x00001800)  returns 0x00 (0000ms, 0893ms total)
T072C 001:525 JLINK_WriteReg(R1, 0x00000400)  returns 0x00 (0000ms, 0893ms total)
T072C 001:525 JLINK_WriteReg(R2, 0x10000204)  returns 0x00 (0000ms, 0893ms total)
T072C 001:525 JLINK_WriteReg(R3, 0x00000000)  returns 0x00 (0000ms, 0893ms total)
T072C 001:525 JLINK_WriteReg(R4, 0x00000000)  returns 0x00 (0000ms, 0893ms total)
T072C 001:525 JLINK_WriteReg(R5, 0x00000000)  returns 0x00 (0000ms, 0893ms total)
T072C 001:525 JLINK_WriteReg(R6, 0x00000000)  returns 0x00 (0000ms, 0893ms total)
T072C 001:525 JLINK_WriteReg(R7, 0x00000000)  returns 0x00 (0000ms, 0893ms total)
T072C 001:525 JLINK_WriteReg(R8, 0x00000000)  returns 0x00 (0000ms, 0893ms total)
T072C 001:525 JLINK_WriteReg(R9, 0x100001DC)  returns 0x00 (0000ms, 0893ms total)
T072C 001:525 JLINK_WriteReg(R10, 0x00000000)  returns 0x00 (0000ms, 0893ms total)
T072C 001:525 JLINK_WriteReg(R11, 0x00000000)  returns 0x00 (0000ms, 0893ms total)
T072C 001:525 JLINK_WriteReg(R12, 0x00000000)  returns 0x00 (0000ms, 0893ms total)
T072C 001:525 JLINK_WriteReg(R13, 0x10000800)  returns 0x00 (0000ms, 0893ms total)
T072C 001:525 JLINK_WriteReg(R14, 0x10000001)  returns 0x00 (0000ms, 0893ms total)
T072C 001:525 JLINK_WriteReg(R15, 0x10000156)  returns 0x00 (0000ms, 0893ms total)
T072C 001:525 JLINK_WriteReg(XPSR, 0x01000000)  returns 0x00 (0000ms, 0893ms total)
T072C 001:525 JLINK_WriteReg(MSP, 0x10000800)  returns 0x00 (0000ms, 0893ms total)
T072C 001:525 JLINK_WriteReg(PSP, 0x10000800)  returns 0x00 (0000ms, 0893ms total)
T072C 001:525 JLINK_WriteReg(CFBP, 0x00000000)  returns 0x00 (0000ms, 0893ms total)
T072C 001:525 JLINK_SetBPEx(Addr = 0x10000000, Type = 0xFFFFFFF2)  returns 0x0000000B (0000ms, 0893ms total)
T072C 001:525 JLINK_Go() (0003ms, 0896ms total)
T072C 001:528 JLINK_IsHalted()  returns FALSE (0001ms, 0897ms total)
T072C 001:579 JLINK_IsHalted()  returns TRUE (0005ms, 0901ms total)
T072C 001:584 JLINK_ReadReg(R15)  returns 0x10000000 (0000ms, 0896ms total)
T072C 001:584 JLINK_ClrBPEx(BPHandle = 0x0000000B)  returns 0x00 (0000ms, 0896ms total)
T072C 001:584 JLINK_ReadReg(R0)  returns 0x00000000 (0000ms, 0896ms total)
T072C 001:585 JLINK_WriteMem(0x10000204, 0x0400 Bytes, ...) -- Data:  91 FE 01 28 09 D1 01 27 11 20 01 F0 E9 F8 96 F8 ... -- CPU_WriteMem(1024 bytes @ 0x10000204)  returns 0x400 (0015ms, 0911ms total)
T072C 001:600 JLINK_WriteReg(R0, 0x00001C00)  returns 0x00 (0000ms, 0911ms total)
T072C 001:600 JLINK_WriteReg(R1, 0x00000400)  returns 0x00 (0000ms, 0911ms total)
T072C 001:600 JLINK_WriteReg(R2, 0x10000204)  returns 0x00 (0000ms, 0911ms total)
T072C 001:600 JLINK_WriteReg(R3, 0x00000000)  returns 0x00 (0000ms, 0911ms total)
T072C 001:600 JLINK_WriteReg(R4, 0x00000000)  returns 0x00 (0000ms, 0911ms total)
T072C 001:600 JLINK_WriteReg(R5, 0x00000000)  returns 0x00 (0000ms, 0911ms total)
T072C 001:600 JLINK_WriteReg(R6, 0x00000000)  returns 0x00 (0000ms, 0911ms total)
T072C 001:600 JLINK_WriteReg(R7, 0x00000000)  returns 0x00 (0000ms, 0911ms total)
T072C 001:600 JLINK_WriteReg(R8, 0x00000000)  returns 0x00 (0000ms, 0911ms total)
T072C 001:600 JLINK_WriteReg(R9, 0x100001DC)  returns 0x00 (0000ms, 0911ms total)
T072C 001:600 JLINK_WriteReg(R10, 0x00000000)  returns 0x00 (0000ms, 0911ms total)
T072C 001:600 JLINK_WriteReg(R11, 0x00000000)  returns 0x00 (0000ms, 0911ms total)
T072C 001:600 JLINK_WriteReg(R12, 0x00000000)  returns 0x00 (0000ms, 0911ms total)
T072C 001:600 JLINK_WriteReg(R13, 0x10000800)  returns 0x00 (0000ms, 0911ms total)
T072C 001:600 JLINK_WriteReg(R14, 0x10000001)  returns 0x00 (0000ms, 0911ms total)
T072C 001:600 JLINK_WriteReg(R15, 0x10000156)  returns 0x00 (0001ms, 0912ms total)
T072C 001:601 JLINK_WriteReg(XPSR, 0x01000000)  returns 0x00 (0000ms, 0912ms total)
T072C 001:601 JLINK_WriteReg(MSP, 0x10000800)  returns 0x00 (0000ms, 0912ms total)
T072C 001:601 JLINK_WriteReg(PSP, 0x10000800)  returns 0x00 (0000ms, 0912ms total)
T072C 001:601 JLINK_WriteReg(CFBP, 0x00000000)  returns 0x00 (0000ms, 0912ms total)
T072C 001:601 JLINK_SetBPEx(Addr = 0x10000000, Type = 0xFFFFFFF2)  returns 0x0000000C (0000ms, 0912ms total)
T072C 001:601 JLINK_Go() (0002ms, 0914ms total)
T072C 001:603 JLINK_IsHalted()  returns FALSE (0001ms, 0915ms total)
T072C 001:655 JLINK_IsHalted()  returns TRUE (0005ms, 0919ms total)
T072C 001:660 JLINK_ReadReg(R15)  returns 0x10000000 (0000ms, 0914ms total)
T072C 001:660 JLINK_ClrBPEx(BPHandle = 0x0000000C)  returns 0x00 (0000ms, 0914ms total)
T072C 001:660 JLINK_ReadReg(R0)  returns 0x00000000 (0000ms, 0914ms total)
T072C 001:661 JLINK_WriteMem(0x10000204, 0x0400 Bytes, ...) -- Data:  A5 FC FE F7 9F FC F2 1D 00 90 51 1E 04 20 FE F7 ... -- CPU_WriteMem(1024 bytes @ 0x10000204)  returns 0x400 (0015ms, 0929ms total)
T072C 001:676 JLINK_WriteReg(R0, 0x00002000)  returns 0x00 (0000ms, 0929ms total)
T072C 001:676 JLINK_WriteReg(R1, 0x00000400)  returns 0x00 (0000ms, 0929ms total)
T072C 001:676 JLINK_WriteReg(R2, 0x10000204)  returns 0x00 (0000ms, 0929ms total)
T072C 001:676 JLINK_WriteReg(R3, 0x00000000)  returns 0x00 (0000ms, 0929ms total)
T072C 001:676 JLINK_WriteReg(R4, 0x00000000)  returns 0x00 (0000ms, 0929ms total)
T072C 001:676 JLINK_WriteReg(R5, 0x00000000)  returns 0x00 (0000ms, 0929ms total)
T072C 001:676 JLINK_WriteReg(R6, 0x00000000)  returns 0x00 (0000ms, 0929ms total)
T072C 001:676 JLINK_WriteReg(R7, 0x00000000)  returns 0x00 (0000ms, 0929ms total)
T072C 001:676 JLINK_WriteReg(R8, 0x00000000)  returns 0x00 (0000ms, 0929ms total)
T072C 001:676 JLINK_WriteReg(R9, 0x100001DC)  returns 0x00 (0000ms, 0929ms total)
T072C 001:676 JLINK_WriteReg(R10, 0x00000000)  returns 0x00 (0000ms, 0929ms total)
T072C 001:676 JLINK_WriteReg(R11, 0x00000000)  returns 0x00 (0000ms, 0929ms total)
T072C 001:676 JLINK_WriteReg(R12, 0x00000000)  returns 0x00 (0000ms, 0929ms total)
T072C 001:676 JLINK_WriteReg(R13, 0x10000800)  returns 0x00 (0000ms, 0929ms total)
T072C 001:676 JLINK_WriteReg(R14, 0x10000001)  returns 0x00 (0000ms, 0929ms total)
T072C 001:676 JLINK_WriteReg(R15, 0x10000156)  returns 0x00 (0000ms, 0929ms total)
T072C 001:676 JLINK_WriteReg(XPSR, 0x01000000)  returns 0x00 (0000ms, 0929ms total)
T072C 001:676 JLINK_WriteReg(MSP, 0x10000800)  returns 0x00 (0000ms, 0929ms total)
T072C 001:676 JLINK_WriteReg(PSP, 0x10000800)  returns 0x00 (0000ms, 0929ms total)
T072C 001:676 JLINK_WriteReg(CFBP, 0x00000000)  returns 0x00 (0000ms, 0929ms total)
T072C 001:676 JLINK_SetBPEx(Addr = 0x10000000, Type = 0xFFFFFFF2)  returns 0x0000000D (0000ms, 0929ms total)
T072C 001:676 JLINK_Go() (0003ms, 0932ms total)
T072C 001:679 JLINK_IsHalted()  returns FALSE (0001ms, 0933ms total)
T072C 001:731 JLINK_IsHalted()  returns TRUE (0005ms, 0937ms total)
T072C 001:736 JLINK_ReadReg(R15)  returns 0x10000000 (0000ms, 0932ms total)
T072C 001:736 JLINK_ClrBPEx(BPHandle = 0x0000000D)  returns 0x00 (0000ms, 0932ms total)
T072C 001:736 JLINK_ReadReg(R0)  returns 0x00000000 (0000ms, 0932ms total)
T072C 001:737 JLINK_WriteMem(0x10000204, 0x0400 Bytes, ...) -- Data:  49 17 00 00 8C 27 00 10 21 19 00 00 8C 28 00 10 ... -- CPU_WriteMem(1024 bytes @ 0x10000204)  returns 0x400 (0015ms, 0947ms total)
T072C 001:752 JLINK_WriteReg(R0, 0x00002400)  returns 0x00 (0000ms, 0947ms total)
T072C 001:752 JLINK_WriteReg(R1, 0x00000400)  returns 0x00 (0000ms, 0947ms total)
T072C 001:752 JLINK_WriteReg(R2, 0x10000204)  returns 0x00 (0000ms, 0947ms total)
T072C 001:752 JLINK_WriteReg(R3, 0x00000000)  returns 0x00 (0000ms, 0947ms total)
T072C 001:752 JLINK_WriteReg(R4, 0x00000000)  returns 0x00 (0000ms, 0947ms total)
T072C 001:752 JLINK_WriteReg(R5, 0x00000000)  returns 0x00 (0000ms, 0947ms total)
T072C 001:752 JLINK_WriteReg(R6, 0x00000000)  returns 0x00 (0000ms, 0947ms total)
T072C 001:752 JLINK_WriteReg(R7, 0x00000000)  returns 0x00 (0000ms, 0947ms total)
T072C 001:752 JLINK_WriteReg(R8, 0x00000000)  returns 0x00 (0000ms, 0947ms total)
T072C 001:752 JLINK_WriteReg(R9, 0x100001DC)  returns 0x00 (0000ms, 0947ms total)
T072C 001:752 JLINK_WriteReg(R10, 0x00000000)  returns 0x00 (0000ms, 0947ms total)
T072C 001:752 JLINK_WriteReg(R11, 0x00000000)  returns 0x00 (0000ms, 0947ms total)
T072C 001:752 JLINK_WriteReg(R12, 0x00000000)  returns 0x00 (0000ms, 0947ms total)
T072C 001:752 JLINK_WriteReg(R13, 0x10000800)  returns 0x00 (0000ms, 0947ms total)
T072C 001:752 JLINK_WriteReg(R14, 0x10000001)  returns 0x00 (0000ms, 0947ms total)
T072C 001:752 JLINK_WriteReg(R15, 0x10000156)  returns 0x00 (0000ms, 0947ms total)
T072C 001:752 JLINK_WriteReg(XPSR, 0x01000000)  returns 0x00 (0000ms, 0947ms total)
T072C 001:752 JLINK_WriteReg(MSP, 0x10000800)  returns 0x00 (0000ms, 0947ms total)
T072C 001:752 JLINK_WriteReg(PSP, 0x10000800)  returns 0x00 (0000ms, 0947ms total)
T072C 001:752 JLINK_WriteReg(CFBP, 0x00000000)  returns 0x00 (0000ms, 0947ms total)
T072C 001:752 JLINK_SetBPEx(Addr = 0x10000000, Type = 0xFFFFFFF2)  returns 0x0000000E (0000ms, 0947ms total)
T072C 001:752 JLINK_Go() (0003ms, 0950ms total)
T072C 001:755 JLINK_IsHalted()  returns FALSE (0000ms, 0950ms total)
T072C 001:806 JLINK_IsHalted()  returns TRUE (0005ms, 0955ms total)
T072C 001:811 JLINK_ReadReg(R15)  returns 0x10000000 (0000ms, 0950ms total)
T072C 001:811 JLINK_ClrBPEx(BPHandle = 0x0000000E)  returns 0x00 (0000ms, 0950ms total)
T072C 001:811 JLINK_ReadReg(R0)  returns 0x00000000 (0000ms, 0950ms total)
T072C 001:812 JLINK_WriteMem(0x10000204, 0x0400 Bytes, ...) -- Data:  04 EB 44 00 41 00 A8 5D 00 22 00 F0 2D FB 64 1C ... -- CPU_WriteMem(1024 bytes @ 0x10000204)  returns 0x400 (0015ms, 0965ms total)
T072C 001:827 JLINK_WriteReg(R0, 0x00002800)  returns 0x00 (0000ms, 0965ms total)
T072C 001:827 JLINK_WriteReg(R1, 0x00000400)  returns 0x00 (0000ms, 0965ms total)
T072C 001:827 JLINK_WriteReg(R2, 0x10000204)  returns 0x00 (0000ms, 0965ms total)
T072C 001:827 JLINK_WriteReg(R3, 0x00000000)  returns 0x00 (0000ms, 0965ms total)
T072C 001:827 JLINK_WriteReg(R4, 0x00000000)  returns 0x00 (0000ms, 0965ms total)
T072C 001:827 JLINK_WriteReg(R5, 0x00000000)  returns 0x00 (0000ms, 0965ms total)
T072C 001:827 JLINK_WriteReg(R6, 0x00000000)  returns 0x00 (0000ms, 0965ms total)
T072C 001:827 JLINK_WriteReg(R7, 0x00000000)  returns 0x00 (0000ms, 0965ms total)
T072C 001:827 JLINK_WriteReg(R8, 0x00000000)  returns 0x00 (0000ms, 0965ms total)
T072C 001:827 JLINK_WriteReg(R9, 0x100001DC)  returns 0x00 (0000ms, 0965ms total)
T072C 001:827 JLINK_WriteReg(R10, 0x00000000)  returns 0x00 (0000ms, 0965ms total)
T072C 001:827 JLINK_WriteReg(R11, 0x00000000)  returns 0x00 (0000ms, 0965ms total)
T072C 001:827 JLINK_WriteReg(R12, 0x00000000)  returns 0x00 (0000ms, 0965ms total)
T072C 001:827 JLINK_WriteReg(R13, 0x10000800)  returns 0x00 (0000ms, 0965ms total)
T072C 001:827 JLINK_WriteReg(R14, 0x10000001)  returns 0x00 (0000ms, 0965ms total)
T072C 001:827 JLINK_WriteReg(R15, 0x10000156)  returns 0x00 (0000ms, 0965ms total)
T072C 001:827 JLINK_WriteReg(XPSR, 0x01000000)  returns 0x00 (0000ms, 0965ms total)
T072C 001:827 JLINK_WriteReg(MSP, 0x10000800)  returns 0x00 (0000ms, 0965ms total)
T072C 001:827 JLINK_WriteReg(PSP, 0x10000800)  returns 0x00 (0000ms, 0965ms total)
T072C 001:827 JLINK_WriteReg(CFBP, 0x00000000)  returns 0x00 (0000ms, 0965ms total)
T072C 001:827 JLINK_SetBPEx(Addr = 0x10000000, Type = 0xFFFFFFF2)  returns 0x0000000F (0000ms, 0965ms total)
T072C 001:827 JLINK_Go() (0003ms, 0968ms total)
T072C 001:830 JLINK_IsHalted()  returns FALSE (0000ms, 0968ms total)
T072C 001:881 JLINK_IsHalted()  returns TRUE (0005ms, 0973ms total)
T072C 001:886 JLINK_ReadReg(R15)  returns 0x10000000 (0000ms, 0968ms total)
T072C 001:886 JLINK_ClrBPEx(BPHandle = 0x0000000F)  returns 0x00 (0000ms, 0968ms total)
T072C 001:886 JLINK_ReadReg(R0)  returns 0x00000000 (0000ms, 0968ms total)
T072C 001:887 JLINK_WriteMem(0x10000204, 0x0400 Bytes, ...) -- Data:  F6 B2 5F EA 0B 01 4F F0 00 00 0D D0 4A 46 0B 46 ... -- CPU_WriteMem(1024 bytes @ 0x10000204)  returns 0x400 (0015ms, 0983ms total)
T072C 001:902 JLINK_WriteReg(R0, 0x00002C00)  returns 0x00 (0000ms, 0983ms total)
T072C 001:902 JLINK_WriteReg(R1, 0x00000400)  returns 0x00 (0000ms, 0983ms total)
T072C 001:902 JLINK_WriteReg(R2, 0x10000204)  returns 0x00 (0000ms, 0983ms total)
T072C 001:902 JLINK_WriteReg(R3, 0x00000000)  returns 0x00 (0000ms, 0983ms total)
T072C 001:902 JLINK_WriteReg(R4, 0x00000000)  returns 0x00 (0001ms, 0984ms total)
T072C 001:903 JLINK_WriteReg(R5, 0x00000000)  returns 0x00 (0000ms, 0984ms total)
T072C 001:903 JLINK_WriteReg(R6, 0x00000000)  returns 0x00 (0000ms, 0984ms total)
T072C 001:903 JLINK_WriteReg(R7, 0x00000000)  returns 0x00 (0000ms, 0984ms total)
T072C 001:903 JLINK_WriteReg(R8, 0x00000000)  returns 0x00 (0000ms, 0984ms total)
T072C 001:903 JLINK_WriteReg(R9, 0x100001DC)  returns 0x00 (0000ms, 0984ms total)
T072C 001:903 JLINK_WriteReg(R10, 0x00000000)  returns 0x00 (0000ms, 0984ms total)
T072C 001:903 JLINK_WriteReg(R11, 0x00000000)  returns 0x00 (0000ms, 0984ms total)
T072C 001:903 JLINK_WriteReg(R12, 0x00000000)  returns 0x00 (0000ms, 0984ms total)
T072C 001:903 JLINK_WriteReg(R13, 0x10000800)  returns 0x00 (0000ms, 0984ms total)
T072C 001:903 JLINK_WriteReg(R14, 0x10000001)  returns 0x00 (0000ms, 0984ms total)
T072C 001:903 JLINK_WriteReg(R15, 0x10000156)  returns 0x00 (0000ms, 0984ms total)
T072C 001:903 JLINK_WriteReg(XPSR, 0x01000000)  returns 0x00 (0000ms, 0984ms total)
T072C 001:903 JLINK_WriteReg(MSP, 0x10000800)  returns 0x00 (0000ms, 0984ms total)
T072C 001:903 JLINK_WriteReg(PSP, 0x10000800)  returns 0x00 (0000ms, 0984ms total)
T072C 001:903 JLINK_WriteReg(CFBP, 0x00000000)  returns 0x00 (0000ms, 0984ms total)
T072C 001:903 JLINK_SetBPEx(Addr = 0x10000000, Type = 0xFFFFFFF2)  returns 0x00000010 (0000ms, 0984ms total)
T072C 001:903 JLINK_Go() (0002ms, 0986ms total)
T072C 001:905 JLINK_IsHalted()  returns FALSE (0001ms, 0987ms total)
T072C 001:956 JLINK_IsHalted()  returns TRUE (0005ms, 0991ms total)
T072C 001:961 JLINK_ReadReg(R15)  returns 0x10000000 (0000ms, 0986ms total)
T072C 001:961 JLINK_ClrBPEx(BPHandle = 0x00000010)  returns 0x00 (0000ms, 0986ms total)
T072C 001:961 JLINK_ReadReg(R0)  returns 0x00000000 (0000ms, 0986ms total)
T072C 001:962 JLINK_WriteMem(0x10000204, 0x0400 Bytes, ...) -- Data:  00 20 70 47 01 20 70 47 28 01 00 50 03 48 00 68 ... -- CPU_WriteMem(1024 bytes @ 0x10000204)  returns 0x400 (0015ms, 1001ms total)
T072C 001:977 JLINK_WriteReg(R0, 0x00003000)  returns 0x00 (0000ms, 1001ms total)
T072C 001:977 JLINK_WriteReg(R1, 0x00000400)  returns 0x00 (0000ms, 1001ms total)
T072C 001:977 JLINK_WriteReg(R2, 0x10000204)  returns 0x00 (0000ms, 1001ms total)
T072C 001:977 JLINK_WriteReg(R3, 0x00000000)  returns 0x00 (0000ms, 1001ms total)
T072C 001:977 JLINK_WriteReg(R4, 0x00000000)  returns 0x00 (0000ms, 1001ms total)
T072C 001:977 JLINK_WriteReg(R5, 0x00000000)  returns 0x00 (0000ms, 1001ms total)
T072C 001:977 JLINK_WriteReg(R6, 0x00000000)  returns 0x00 (0000ms, 1001ms total)
T072C 001:977 JLINK_WriteReg(R7, 0x00000000)  returns 0x00 (0000ms, 1001ms total)
T072C 001:977 JLINK_WriteReg(R8, 0x00000000)  returns 0x00 (0000ms, 1001ms total)
